
**** 01/14/25 18:47:46 ******* PSpice Lite (March 2016) ******* ID# 10813 ****

 ** Profile: "SCHEMATIC1-1"  [ C:\Users\Alex\Desktop\an 3 orcad\8\8-pspicefiles\schematic1\1.sim ] 


 ****     CIRCUIT DESCRIPTION


******************************************************************************




** Creating circuit file "1.cir" 
** WARNING: THIS AUTOMATICALLY GENERATED FILE MAY BE OVERWRITTEN BY SUBSEQUENT SIMULATIONS

*Libraries: 
* Profile Libraries :
* Local Libraries :
.LIB "../../../MovedFiles/bzx84c2v7.lib" 
.LIB "../../../p1/lib_modelepspice_anexa_1/modele_a1_lib/bzx84c2v7.lib" 
.LIB "../../../p1/lib_modelepspice_anexa_1/modele_a1_lib/bc817-25.lib" 
.LIB "../../../p1/spice_models_tht_transistors.txt" 
.LIB "../../../p1/lib_modelepspice_anexa_1/modele_a1_lib/bc807-25.lib" 
.LIB "../../../MovedFiles/mjd32cg.lib" 
.LIB "../../../MovedFiles/bzx84c6v2.lib" 
.LIB "../../../MovedFiles/bzx84c5v1.lib" 
.LIB "../../../p1/lib_modelepspice_anexa_1/modele_a1_lib/1n4148.lib" 
.LIB "../../../MovedFiles/1n4148.lib" 
* From [PSPICE NETLIST] section of C:\Users\Alex\AppData\Roaming\SPB_16.6\cdssetup\OrCAD_PSpice\17.2.0\PSpice.ini file:
.lib "nomd.lib" 

*Analysis directives: 
.OPTIONS ADVCONV
.PROBE64 V(alias(*)) I(alias(*)) W(alias(*)) D(alias(*)) NOISE(alias(*)) 
.INC "..\SCHEMATIC1.net" 



**** INCLUDING SCHEMATIC1.net ****
* source 8
R_R1         N04257 N03189  2.2k TC=0,0 
R_R2         0 N00294  470 TC=0,0 
R_R6         N00751 N00646  22k TC=0,0 
R_R7         N007061 N00747  3.3K TC=0,0 
X_R8         N00747 N03922 N00751 POT PARAMS: SET=1 VALUE=2k
R_R3         N04406 N00646  33 TC=0,0 
R_R5         0 N04598  33k TC=0,0 
R_R4         N04598 N04406  4.7k TC=0,0 
R_RL         0 N00646  {RL} TC=0,0 
R_R9         N23501 N03189  470 TC=0,0 
V_V1         N03189 0 15
R_R10         N23505 N03189  470 TC=0,0 
X_R11         0 N32050 N04257 POT PARAMS: SET=0.5 VALUE=10k
X_D1         0 N04257 Zener PARAMS: VZT=5.6 TCBV=1.7 
Q_Q4         N00220 N03922 N00294 QBC337-40 
Q_Q7         N00646 N34240 0 QBC337-40 
X_D2         N34240 N42766 Zener PARAMS: VZT=10 TCBV=1.7 
R_R13         0 N007061  3.3K TC=0,0 
Q_Q6         N00220 N04598 N00646 QBC337-40 
Q_Q1         N00198 N00198 N23501 BC327_40 
R_R12         0 N34240  100 TC=0,0 
Q_Q2         N00220 N00198 N23505 BC327_40 
Q_Q3         N00198 N32050 N00294 QBC337-40 
X_D3         N42766 N00646 Zener PARAMS: VZT=5.1 TCBV=1.7 
Q_Q5         N03189 N00220 N04406 BD241
.PARAM  rl=1k

**** RESUMING 1.cir ****
.END

**** 01/14/25 18:47:46 ******* PSpice Lite (March 2016) ******* ID# 10813 ****

 ** Profile: "SCHEMATIC1-1"  [ C:\Users\Alex\Desktop\an 3 orcad\8\8-pspicefiles\schematic1\1.sim ] 


 ****     BJT MODEL PARAMETERS


******************************************************************************




               QBC337-40       BC327_40        BD241           
               NPN             PNP             NPN             
       LEVEL    1               1               1            
          IS   78.090000E-15   10.002900E-15    2.447000E-12 
          BF  436.8           482.999         208.2          
          NF     .9916           .994875        1            
         VAF  103.6           100             100            
         IKF     .8             1.02836          .9743       
         ISE    2.069000E-15   18.544110E-21   70.690000E-12 
          NE    1.4             1.14573         1.565        
          BR   44.14             .100389       12.59         
          NR     .991           1               1            
         VAR   14                                            
         IKR     .09            1               3.86         
         ISC   66.600000E-15    1.148950E-12   11.680000E-09 
          NC    1.2                             1.835        
          NK                                     .6134       
         ISS    0               0               0            
          RB   70                                .1          
         RBM    8                                            
         IRB  200.000000E-06                                 
          RE     .12             .360928        0            
          RC     .24             .743745         .4685       
         CJE   35.790000E-12    2.000000E-12  188.500000E-12 
         VJE     .6657           .75             .75         
         MJE     .3596           .5              .4878       
         CJC   13.060000E-12   50.385100E-12  142.000000E-12 
         VJC     .3647           .7              .75         
         MJC     .3658           .558066         .4353       
        XCJC     .455           1               1            
         CJS    0               0               0            
         VJS     .75             .75             .75         
         MJS     .333                                        
          FC     .843                                        
          TF  500.000000E-12  500.996000E-12   19.850000E-09 
         XTF    2.5              .499989        5.945        
         VTF    2              10              10            
         ITF     .5              .010072      164.1          
         PTF   88                                            
          TR   25.000000E-09   10.000000E-09  194.200000E-09 
         XTB                                    1.5          
          KF    0               0               0            
          AF    1               1               1            
          CN    2.42            2.2             2.42         
           D     .87             .52             .87         


**** 01/14/25 18:47:46 ******* PSpice Lite (March 2016) ******* ID# 10813 ****

 ** Profile: "SCHEMATIC1-1"  [ C:\Users\Alex\Desktop\an 3 orcad\8\8-pspicefiles\schematic1\1.sim ] 


 ****     SMALL SIGNAL BIAS SOLUTION       TEMPERATURE =   27.000 DEG C


******************************************************************************



 NODE   VOLTAGE     NODE   VOLTAGE     NODE   VOLTAGE     NODE   VOLTAGE


(N00198)   13.2130 (N00220)   13.8050 (N00294)    2.1421 (N00646)   12.7890     

(N00747)    2.7440 (N00751)    3.5811 (N03189)   15.0000 (N03922)    2.7440     

(N04257)    5.5740 (N04406)   13.2250 (N04598)   11.5760 (N23501)   13.8880     

(N23505)   13.8890 (N32050)    2.7690 (N34240) 121.0E-06 (N42766)    8.4695     

(N007061)    1.3720                   (X_D1.XinstMyZenerModel.1)     .4707      

(X_D1.XinstMyZenerModel.3)    5.1032  (X_D1.XinstMyZenerModel.9) 38.06E-06      

(X_D2.XinstMyZenerModel.1)   -1.0337  (X_D2.XinstMyZenerModel.3)    9.5032      

(X_D2.XinstMyZenerModel.9) 121.0E-06  (X_D3.XinstMyZenerModel.1)    8.1857      

(X_D3.XinstMyZenerModel.3)    4.6032  (X_D3.XinstMyZenerModel.9)    8.4695  




    VOLTAGE SOURCE CURRENTS
    NAME         CURRENT

    V_V1        -2.239E-02

    TOTAL POWER DISSIPATION   3.36E-01  WATTS



          JOB CONCLUDED

**** 01/14/25 18:47:46 ******* PSpice Lite (March 2016) ******* ID# 10813 ****

 ** Profile: "SCHEMATIC1-1"  [ C:\Users\Alex\Desktop\an 3 orcad\8\8-pspicefiles\schematic1\1.sim ] 


 ****     JOB STATISTICS SUMMARY


******************************************************************************



  Total job time (using Solver 1)   =         .03
